Circuit: * C:\Users\José Manuel\Documents\Universidad\4º\Instrumentación y Acondicionamiento de Señal\Trabajo\git\PMOS_CS_CMOSLOAD.asc

Ignoring BSIM parameter XL
Ignoring BSIM parameter XW
Ignoring BSIM parameter XL
Ignoring BSIM parameter XW
Direct Newton iteration for .op point succeeded.
Semiconductor Device Operating Points:
                        --- BSIM3 MOSFETS ---
Name:        m2          m5          m4          m1
Model:    nmos-bsim   nmos-bsim   nmos-bsim   pmos-bsim
Id:        1.94e-04    1.94e-04    1.97e-04   -1.97e-04
Vgs:       2.15e+00    8.52e-01    8.52e-01   -8.89e-01
Vds:       2.15e+00    8.52e-01    1.20e+00   -1.80e+00
Vbs:       0.00e+00    0.00e+00    0.00e+00    0.00e+00
Vth:       5.61e-01    5.63e-01    5.63e-01   -6.78e-01
Vdsat:     7.91e-01    2.15e-01    2.15e-01   -2.03e-01
Gm:        1.76e-04    1.31e-03    1.32e-03    1.59e-03
Gds:       2.52e-06    1.11e-05    9.87e-06    1.47e-05
Gmb        4.71e-05    3.88e-04    3.93e-04    3.85e-04
Cbd:       1.39e-15    1.71e-14    1.61e-14    6.20e-14
Cbs:       1.99e-15    2.15e-14    2.15e-14    1.12e-13
Cgsov:     2.88e-16    5.43e-15    5.43e-15    1.69e-14
Cgdov:     2.88e-16    5.43e-15    5.43e-15    1.67e-14
Cgbov:     9.99e-19    9.99e-19    9.99e-19    1.00e-18
dQgdVgb:   4.32e-15    8.12e-14    8.12e-14    3.12e-13
dQgdVdb:  -2.89e-16   -5.46e-15   -5.44e-15   -1.64e-14
dQgdVsb:  -4.02e-15   -7.11e-14   -7.11e-14   -2.73e-13
dQddVgb:  -1.83e-15   -3.45e-14   -3.45e-14   -1.34e-13
dQddVdb:   1.68e-15    2.25e-14    2.15e-14    7.85e-14
dQddVsb:   2.06e-15    3.88e-14    3.88e-14    1.47e-13
dQbdVgb:  -6.65e-16   -1.23e-14   -1.23e-14   -4.30e-14
dQbdVdb:  -1.39e-15   -1.71e-14   -1.61e-14   -6.19e-14
dQbdVsb:  -2.37e-15   -3.34e-14   -3.34e-14   -1.51e-13


.step temp=-40°C
.step temp=27°C
.step temp=85°C

Date: Sun Jun 20 21:27:24 2021
Total elapsed time: 0.110 seconds.

tnom = 27
temp = 85
method = trap
totiter = 14
traniter = 0
tranpoints = 0
accept = 0
rejected = 0
matrix size = 6
fillins = 0
solver = Normal
Matrix Compiler1:      11 opcodes
Matrix Compiler2: 408 bytes object code size
