Circuit: * C:\Users\José Manuel\Documents\Universidad\4º\Instrumentación y Acondicionamiento de Señal\Trabajo\git\PMOS_CS_RD.asc

Ignoring BSIM parameter XL
Ignoring BSIM parameter XW
Direct Newton iteration for .op point succeeded.
Semiconductor Device Operating Points:
                        --- BSIM3 MOSFETS ---
Name:        m1
Model:    pmos-bsim
Id:       -1.41e-04
Vgs:      -8.86e-01
Vds:      -1.50e+00
Vbs:       0.00e+00
Vth:      -6.54e-01
Vdsat:    -2.29e-01
Gm:        1.06e-03
Gds:       1.09e-05
Gmb        2.50e-04
Cbd:       6.61e-14
Cbs:       1.12e-13
Cgsov:     1.69e-14
Cgdov:     1.67e-14
Cgbov:     1.00e-18
dQgdVgb:   3.12e-13
dQgdVdb:  -1.64e-14
dQgdVsb:  -2.72e-13
dQddVgb:  -1.34e-13
dQddVdb:   8.26e-14
dQddVsb:   1.47e-13
dQbdVgb:  -4.31e-14
dQbdVdb:  -6.60e-14
dQbdVsb:  -1.51e-13



Date: Thu Jun 10 12:05:21 2021
Total elapsed time: 0.063 seconds.

tnom = 27
temp = 27
method = trap
totiter = 5
traniter = 0
tranpoints = 0
accept = 0
rejected = 0
matrix size = 5
fillins = 0
solver = Normal
Matrix Compiler1:       7 opcodes
Matrix Compiler2: 301 bytes object code size
