Circuit: * C:\Users\José Manuel\Documents\Universidad\4º\Instrumentación y Acondicionamiento de Señal\Trabajo\git\PMOS_CS_CMOSLOAD_CASCODE.asc

Ignoring BSIM parameter XL
Ignoring BSIM parameter XW
Ignoring BSIM parameter XL
Ignoring BSIM parameter XW
Direct Newton iteration for .op point succeeded.
Semiconductor Device Operating Points:
                        --- BSIM3 MOSFETS ---
Name:        m3          m5          m4          m2          m1
Model:    nmos-bsim   nmos-bsim   nmos-bsim   pmos-bsim   pmos-bsim
Id:        1.40e-04    1.40e-04    1.44e-04   -1.44e-04   -1.44e-04
Vgs:       2.14e+00    8.59e-01    8.59e-01   -1.38e+00   -8.94e-01
Vds:       2.14e+00    8.59e-01    1.50e+00   -4.82e-01   -1.02e+00
Vbs:       0.00e+00    0.00e+00    0.00e+00    1.02e+00    0.00e+00
Vth:       5.37e-01    5.39e-01    5.39e-01   -8.65e-01   -6.55e-01
Vdsat:     9.21e-01    2.46e-01    2.46e-01   -4.94e-01   -2.35e-01
Gm:        1.41e-04    9.34e-04    9.54e-04    4.54e-04    1.06e-03
Gds:       2.08e-06    7.73e-06    6.35e-06    6.28e-05    1.36e-05
Gmb        3.48e-05    2.69e-04    2.75e-04    7.19e-05    2.48e-04
Cbd:       1.39e-15    1.71e-14    1.54e-14    1.85e-14    7.47e-14
Cbs:       1.98e-15    2.15e-14    2.15e-14    2.09e-14    1.12e-13
Cgsov:     2.87e-16    5.43e-15    5.43e-15    4.60e-15    1.69e-14
Cgdov:     2.87e-16    5.43e-15    5.43e-15    4.56e-15    1.67e-14
Cgbov:     9.99e-19    9.99e-19    9.99e-19    1.00e-18    1.00e-18
dQgdVgb:   4.31e-15    8.12e-14    8.12e-14    8.49e-14    3.12e-13
dQgdVdb:  -2.88e-16   -5.46e-15   -5.44e-15   -6.64e-15   -1.64e-14
dQgdVsb:  -4.00e-15   -7.09e-14   -7.09e-14   -7.37e-14   -2.72e-13
dQddVgb:  -1.82e-15   -3.45e-14   -3.45e-14   -3.79e-14   -1.34e-13
dQddVdb:   1.68e-15    2.25e-14    2.08e-14    2.46e-14    9.13e-14
dQddVsb:   2.04e-15    3.86e-14    3.86e-14    3.71e-14    1.47e-13
dQbdVgb:  -6.63e-16   -1.23e-14   -1.23e-14   -9.03e-15   -4.30e-14
dQbdVdb:  -1.39e-15   -1.71e-14   -1.54e-14   -1.95e-14   -7.47e-14
dQbdVsb:  -2.36e-15   -3.33e-14   -3.33e-14   -2.60e-14   -1.51e-13




Measurement "v(vin)" FAIL'ed


Date: Sun Jun 20 13:54:20 2021
Total elapsed time: 0.062 seconds.

tnom = 27
temp = 27
method = trap
totiter = 14
traniter = 0
tranpoints = 0
accept = 0
rejected = 0
matrix size = 9
fillins = 0
solver = Normal
Matrix Compiler1: 314 bytes object code size
Matrix Compiler2: 641 bytes object code size
