Circuit: * C:\Users\José Manuel\Documents\Universidad\4º\Instrumentación y Acondicionamiento de Señal\Trabajo\git\PMOS_CS_CMOSLOAD.asc

Ignoring BSIM parameter XL
Ignoring BSIM parameter XW
Ignoring BSIM parameter XL
Ignoring BSIM parameter XW
Direct Newton iteration for .op point succeeded.
Semiconductor Device Operating Points:
                        --- BSIM3 MOSFETS ---
Name:        m2          m5          m4          m1
Model:    nmos-bsim   nmos-bsim   nmos-bsim   pmos-bsim
Id:        1.40e-04    1.40e-04    1.45e-04   -1.45e-04
Vgs:       2.14e+00    8.59e-01    8.59e-01   -8.89e-01
Vds:       2.14e+00    8.59e-01    1.50e+00   -1.50e+00
Vbs:       0.00e+00    0.00e+00    0.00e+00    0.00e+00
Vth:       5.37e-01    5.39e-01    5.39e-01   -6.54e-01
Vdsat:     9.21e-01    2.46e-01    2.46e-01   -2.31e-01
Gm:        1.41e-04    9.35e-04    9.55e-04    1.07e-03
Gds:       2.09e-06    7.75e-06    6.36e-06    1.11e-05
Gmb        3.49e-05    2.70e-04    2.75e-04    2.53e-04
Cbd:       1.39e-15    1.71e-14    1.54e-14    6.61e-14
Cbs:       1.99e-15    2.15e-14    2.15e-14    1.12e-13
Cgsov:     2.88e-16    5.43e-15    5.43e-15    1.69e-14
Cgdov:     2.88e-16    5.43e-15    5.43e-15    1.67e-14
Cgbov:     9.99e-19    9.99e-19    9.99e-19    1.00e-18
dQgdVgb:   4.32e-15    8.12e-14    8.12e-14    3.12e-13
dQgdVdb:  -2.89e-16   -5.46e-15   -5.44e-15   -1.64e-14
dQgdVsb:  -4.01e-15   -7.09e-14   -7.09e-14   -2.72e-13
dQddVgb:  -1.83e-15   -3.45e-14   -3.45e-14   -1.34e-13
dQddVdb:   1.68e-15    2.25e-14    2.08e-14    8.26e-14
dQddVsb:   2.05e-15    3.86e-14    3.86e-14    1.47e-13
dQbdVgb:  -6.65e-16   -1.23e-14   -1.23e-14   -4.31e-14
dQbdVdb:  -1.39e-15   -1.71e-14   -1.54e-14   -6.60e-14
dQbdVsb:  -2.37e-15   -3.33e-14   -3.33e-14   -1.51e-13



Date: Fri Jun 18 11:23:39 2021
Total elapsed time: 0.060 seconds.

tnom = 27
temp = 27
method = trap
totiter = 11
traniter = 0
tranpoints = 0
accept = 0
rejected = 0
matrix size = 6
fillins = 0
solver = Normal
Matrix Compiler1:      11 opcodes
Matrix Compiler2: 408 bytes object code size
