Circuit: * C:\Users\José Manuel\Documents\Universidad\4º\Instrumentación y Acondicionamiento de Señal\Trabajo\git\PMOS_CS_CMOSLOAD.asc

Ignoring BSIM parameter XL
Ignoring BSIM parameter XW
Direct Newton iteration for .op point succeeded.
Semiconductor Device Operating Points:
                        --- BSIM3 MOSFETS ---
Name:        m1          m3          m2
Model:    pmos-bsim   pmos-bsim   pmos-bsim
Id:       -2.03e-05   -1.40e-04    2.03e-05
Vgs:      -8.26e-01   -1.16e+00   -1.16e+00
Vds:      -2.96e+00   -1.16e+00    3.53e-02
Vbs:       0.00e+00    0.00e+00    0.00e+00
Vth:      -6.65e-01   -6.67e-01   -6.60e-01
Vdsat:    -1.71e-01   -4.35e-01   -4.67e-01
Gm:        2.01e-04    5.07e-04    3.47e-05
Gds:       1.40e-06    1.11e-05    5.55e-04
Gmb        4.76e-05    1.17e-04    9.06e-06
Cbd:       1.30e-14    2.02e-14    3.19e-14
Cbs:       2.85e-14    3.13e-14    3.13e-14
Cgsov:     4.18e-15    4.60e-15    4.60e-15
Cgdov:     4.14e-15    4.56e-15    4.56e-15
Cgbov:     1.00e-18    1.00e-18    1.00e-18
dQgdVgb:   7.67e-14    8.51e-14    1.05e-13
dQgdVdb:  -4.04e-15   -4.48e-15   -4.76e-14
dQgdVsb:  -6.67e-14   -7.52e-14   -5.63e-14
dQddVgb:  -3.29e-14   -3.66e-14   -5.24e-14
dQddVdb:   1.71e-14    2.47e-14    7.04e-14
dQddVsb:   3.59e-14    4.01e-14    2.51e-14
dQbdVgb:  -1.10e-14   -1.18e-14   -4.22e-16
dQbdVdb:  -1.30e-14   -2.02e-14   -5.66e-14
dQbdVsb:  -3.79e-14   -4.08e-14   -2.99e-14



Date: Tue May 18 12:49:47 2021
Total elapsed time: 0.063 seconds.

tnom = 27
temp = 27
method = trap
totiter = 13
traniter = 0
tranpoints = 0
accept = 0
rejected = 0
matrix size = 6
fillins = 0
solver = Normal
Matrix Compiler1: 164 bytes object code size
Matrix Compiler2: 414 bytes object code size
