Circuit: * C:\Users\José Manuel\Documents\Universidad\4º\Instrumentación y Acondicionamiento de Señal\Trabajo\git\PMOS_CS_RD.asc

Ignoring BSIM parameter XL
Ignoring BSIM parameter XW
WARNING: Node N002 is floating.

WARNING: Less than two connections to node N002.  This node is used by M1.
Direct Newton iteration for .op point succeeded.
Semiconductor Device Operating Points:
                        --- BSIM3 MOSFETS ---
Name:        m1
Model:    pmos-bsim
Id:       -1.41e-04
Vgs:      -8.50e-01
Vds:      -1.50e+00
Vbs:      -1.27e-01
Vth:      -6.24e-01
Vdsat:    -2.20e-01
Gm:        1.09e-03
Gds:       1.11e-05
Gmb        2.14e-04
Cbd:       7.23e-14
Cbs:       1.28e-13
Cgsov:     1.80e-14
Cgdov:     1.78e-14
Cgbov:     1.00e-18
dQgdVgb:   3.33e-13
dQgdVdb:  -1.74e-14
dQgdVsb:  -2.98e-13
dQddVgb:  -1.42e-13
dQddVdb:   8.98e-14
dQddVsb:   1.51e-13
dQbdVgb:  -4.75e-14
dQbdVdb:  -7.22e-14
dQbdVsb:  -1.50e-13



Date: Mon May 17 11:18:07 2021
Total elapsed time: 0.093 seconds.

tnom = 27
temp = 27
method = trap
totiter = 20
traniter = 0
tranpoints = 0
accept = 0
rejected = 0
matrix size = 6
fillins = 0
solver = Normal
Matrix Compiler1:      10 opcodes
Matrix Compiler2: 414 bytes object code size
