Circuit: * C:\Users\José Manuel\Documents\Universidad\4º\Instrumentación y Acondicionamiento de Señal\Trabajo\git\PMOS_CS_RD.asc

Ignoring BSIM parameter XL
Ignoring BSIM parameter XW
Direct Newton iteration for .op point succeeded.
Semiconductor Device Operating Points:
                        --- BSIM3 MOSFETS ---
Name:        m1
Model:    pmos-bsim
Id:       -1.77e-04
Vgs:      -8.56e-01
Vds:      -1.12e+00
Vbs:       0.00e+00
Vth:      -6.78e-01
Vdsat:    -1.78e-01
Gm:        1.66e-03
Gds:       1.82e-05
Gmb        4.04e-04
Cbd:       9.06e-14
Cbs:       1.40e-13
Cgsov:     2.11e-14
Cgdov:     2.09e-14
Cgbov:     1.00e-18
dQgdVgb:   3.90e-13
dQgdVdb:  -2.05e-14
dQgdVsb:  -3.40e-13
dQddVgb:  -1.68e-13
dQddVdb:   1.11e-13
dQddVsb:   1.84e-13
dQbdVgb:  -5.38e-14
dQbdVdb:  -9.05e-14
dQbdVsb:  -1.89e-13


.step temp=-40°C
.step temp=27°C
.step temp=85°C


Measurement: v(vin)
  step	v(vout)=-1.5
     1	3.20854e+007
     2	2.60657e+007
     3	2.25451e+007


Date: Sun Jun 20 21:39:05 2021
Total elapsed time: 0.185 seconds.

tnom = 27
temp = 85
method = trap
totiter = 4
traniter = 0
tranpoints = 0
accept = 0
rejected = 0
matrix size = 5
fillins = 0
solver = Normal
Matrix Compiler1:       7 opcodes
Matrix Compiler2: 301 bytes object code size
