Circuit: * C:\Users\José Manuel\Documents\Universidad\4º\Instrumentación y Acondicionamiento de Señal\Trabajo\git\PMOS_CS_CMOSLOAD_CASCODE.asc

Ignoring BSIM parameter XL
Ignoring BSIM parameter XW
Ignoring BSIM parameter XL
Ignoring BSIM parameter XW
Direct Newton iteration for .op point succeeded.
Semiconductor Device Operating Points:
                        --- BSIM3 MOSFETS ---
Name:        m5          m4          m2          m1
Model:    nmos-bsim   nmos-bsim   pmos-bsim   pmos-bsim
Id:        1.40e-04    1.44e-04   -1.44e-04   -1.44e-04
Vgs:       8.59e-01    8.59e-01   -1.16e+00   -8.90e-01
Vds:       8.59e-01    1.44e+00   -2.17e-01   -1.34e+00
Vbs:       0.00e+00    0.00e+00    1.34e+00    0.00e+00
Vth:       5.39e-01    5.39e-01   -9.01e-01   -6.54e-01
Vdsat:     2.46e-01    2.46e-01   -2.76e-01   -2.32e-01
Gm:        9.34e-04    9.53e-04    8.14e-04    1.07e-03
Gds:       7.73e-06    6.40e-06    2.63e-04    1.17e-05
Gmb        2.69e-04    2.74e-04    1.17e-04    2.51e-04
Cbd:       1.71e-14    1.55e-14    6.52e-14    6.86e-14
Cbs:       2.15e-14    2.15e-14    6.86e-14    1.12e-13
Cgsov:     5.43e-15    5.43e-15    1.69e-14    1.69e-14
Cgdov:     5.43e-15    5.43e-15    1.67e-14    1.67e-14
Cgbov:     9.99e-19    9.99e-19    1.00e-18    1.00e-18
dQgdVgb:   8.12e-14    8.12e-14    3.22e-13    3.12e-13
dQgdVdb:  -5.46e-15   -5.44e-15   -3.95e-14   -1.64e-14
dQgdVsb:  -7.09e-14   -7.09e-14   -2.67e-13   -2.72e-13
dQddVgb:  -3.45e-14   -3.45e-14   -1.48e-13   -1.34e-13
dQddVdb:   2.25e-14    2.10e-14    9.80e-14    8.51e-14
dQddVsb:   3.86e-14    3.86e-14    1.34e-13    1.47e-13
dQbdVgb:  -1.23e-14   -1.23e-14   -2.64e-14   -4.31e-14
dQbdVdb:  -1.71e-14   -1.55e-14   -7.45e-14   -6.86e-14
dQbdVsb:  -3.33e-14   -3.33e-14   -8.59e-14   -1.51e-13



Date: Wed Jun 09 11:07:33 2021
Total elapsed time: 0.108 seconds.

tnom = 27
temp = 27
method = trap
totiter = 17
traniter = 0
tranpoints = 0
accept = 0
rejected = 0
matrix size = 9
fillins = 0
solver = Normal
Matrix Compiler1:      19 opcodes
Matrix Compiler2: 641 bytes object code size
