Circuit: * C:\Users\José Manuel\Documents\Universidad\4º\Instrumentación y Acondicionamiento de Señal\Trabajo\git\PMOS_CS_CMOSLOAD.asc

Ignoring BSIM parameter XL
Ignoring BSIM parameter XW
Ignoring BSIM parameter XL
Ignoring BSIM parameter XW
Direct Newton iteration for .op point succeeded.
Semiconductor Device Operating Points:
                        --- BSIM3 MOSFETS ---
Name:        m5          m4          m1
Model:    nmos-bsim   nmos-bsim   pmos-bsim
Id:        1.40e-04    1.44e-04   -1.44e-04
Vgs:       8.59e-01    8.59e-01   -8.88e-01
Vds:       8.59e-01    1.50e+00   -1.50e+00
Vbs:       0.00e+00    0.00e+00    0.00e+00
Vth:       5.39e-01    5.39e-01   -6.54e-01
Vdsat:     2.46e-01    2.46e-01   -2.31e-01
Gm:        9.34e-04    9.54e-04    1.07e-03
Gds:       7.73e-06    6.35e-06    1.11e-05
Gmb        2.69e-04    2.75e-04    2.52e-04
Cbd:       1.71e-14    1.54e-14    6.61e-14
Cbs:       2.15e-14    2.15e-14    1.12e-13
Cgsov:     5.43e-15    5.43e-15    1.69e-14
Cgdov:     5.43e-15    5.43e-15    1.67e-14
Cgbov:     9.99e-19    9.99e-19    1.00e-18
dQgdVgb:   8.12e-14    8.12e-14    3.12e-13
dQgdVdb:  -5.46e-15   -5.44e-15   -1.64e-14
dQgdVsb:  -7.09e-14   -7.09e-14   -2.72e-13
dQddVgb:  -3.45e-14   -3.45e-14   -1.34e-13
dQddVdb:   2.25e-14    2.08e-14    8.26e-14
dQddVsb:   3.86e-14    3.86e-14    1.47e-13
dQbdVgb:  -1.23e-14   -1.23e-14   -4.31e-14
dQbdVdb:  -1.71e-14   -1.54e-14   -6.61e-14
dQbdVsb:  -3.33e-14   -3.33e-14   -1.51e-13



v(vin): v(vout)=-1.5 AT 1.07932e+007


Date: Wed Jun 02 12:02:02 2021
Total elapsed time: 0.069 seconds.

tnom = 27
temp = 27
method = trap
totiter = 10
traniter = 0
tranpoints = 0
accept = 0
rejected = 0
matrix size = 6
fillins = 0
solver = Normal
Matrix Compiler1:      11 opcodes
Matrix Compiler2: 408 bytes object code size
