Circuit: * C:\Users\José Manuel\Documents\Universidad\4º\Instrumentación y Acondicionamiento de Señal\Trabajo\git\PMOS_CS_CMOSLOAD.asc

Ignoring BSIM parameter XL
Ignoring BSIM parameter XW
Ignoring BSIM parameter XL
Ignoring BSIM parameter XW
Direct Newton iteration for .op point succeeded.
Semiconductor Device Operating Points:
                        --- BSIM3 MOSFETS ---
Name:        m2          m5          m4          m1
Model:    nmos-bsim   nmos-bsim   nmos-bsim   pmos-bsim
Id:        1.55e-04    1.55e-04    1.63e-04   -1.63e-04
Vgs:       2.24e+00    7.56e-01    7.56e-01   -9.05e-01
Vds:       2.24e+00    7.56e-01    1.51e+00   -1.49e+00
Vbs:       0.00e+00    0.00e+00    0.00e+00    0.00e+00
Vth:       5.37e-01    5.32e-01    5.32e-01   -6.54e-01
Vdsat:     9.69e-01    1.72e-01    1.72e-01   -2.45e-01
Gm:        1.44e-04    1.67e-03    1.72e-03    1.14e-03
Gds:       2.16e-06    1.12e-05    9.65e-06    1.23e-05
Gmb        3.57e-05    4.83e-04    4.98e-04    2.67e-04
Cbd:       1.38e-15    4.28e-14    3.78e-14    6.62e-14
Cbs:       1.99e-15    5.29e-14    5.29e-14    1.12e-13
Cgsov:     2.88e-16    1.37e-14    1.37e-14    1.69e-14
Cgdov:     2.88e-16    1.37e-14    1.37e-14    1.67e-14
Cgbov:     9.99e-19    9.99e-19    9.99e-19    1.00e-18
dQgdVgb:   4.32e-15    2.05e-13    2.04e-13    3.12e-13
dQgdVdb:  -2.89e-16   -1.38e-14   -1.37e-14   -1.64e-14
dQgdVsb:  -4.03e-15   -1.77e-13   -1.77e-13   -2.72e-13
dQddVgb:  -1.83e-15   -8.68e-14   -8.67e-14   -1.34e-13
dQddVdb:   1.67e-15    5.65e-14    5.15e-14    8.27e-14
dQddVsb:   2.05e-15    9.71e-14    9.71e-14    1.47e-13
dQbdVgb:  -6.64e-16   -3.09e-14   -3.10e-14   -4.30e-14
dQbdVdb:  -1.38e-15   -4.28e-14   -3.78e-14   -6.61e-14
dQbdVsb:  -2.35e-15   -8.35e-14   -8.35e-14   -1.50e-13




Measurement "v(vin)" FAIL'ed


Date: Sat Jun 19 19:36:25 2021
Total elapsed time: 0.078 seconds.

tnom = 27
temp = 27
method = trap
totiter = 11
traniter = 0
tranpoints = 0
accept = 0
rejected = 0
matrix size = 6
fillins = 0
solver = Normal
Matrix Compiler1:      11 opcodes
Matrix Compiler2: 408 bytes object code size
